# vsim -cvgperinstance -vopt -voptargs="+acc" -coverage -sva -sv_seed random work.top -wlf fixed_burst.wlf -l log3.log -c -do "log -r /*; coverage save -onexit cov3; run -all; exit" "+UVM_TESTNAME=fixed_burst_test" 
# Start time: 23:54:48 on Mar 30,2026
# ** Note: (vsim-3813) Design is being optimized due to module recompilation...
# ** Warning: (vopt-10587) Some optimizations are turned off because the +acc switch is in effect. This will cause your simulation to run slowly. Please use -access/-debug to maintain needed visibility. The +acc switch would be deprecated in a future release.
# ** Note: (vsim-12126) Error and warning message counts have been restored: Errors=0, Warnings=1.
# //  Questa Sim-64
# //  Version 2024.2 linux_x86_64 May 20 2024
# //
# // Unpublished work. Copyright 2024 Siemens
# //
# // This material contains trade secrets or otherwise confidential information
# // owned by Siemens Industry Software Inc. or its affiliates (collectively,
# // "SISW"), or its licensors. Access to and use of this information is strictly
# // limited as set forth in the Customer's applicable agreements with SISW.
# //
# // This material may not be copied, distributed, or otherwise disclosed outside
# // of the Customer's facilities without the express written permission of SISW,
# // and may not be used in any way not expressly authorized by SISW.
# //
# Loading sv_std.std
# Loading work.axi(fast)
# Loading mtiUvm.uvm_pkg(fast)
# Loading work.Axi_pkg(fast)
# Loading mtiUvm.questa_uvm_pkg(fast)
# Loading work.top(fast)
# Loading work.axi(fast__2)
# Loading /pkgs/mentor/questa/2024.2/questasim/uvm-1.1d/linux_x86_64/uvm_dpi.so
# ** Warning: (vsim-8634) Code was not compiled with coverage options.
# Sv_Seed = 23962467
# log -r /*
#  coverage save -onexit cov3
#  run -all
# ----------------------------------------------------------------
# UVM-1.1d
# (C) 2007-2013 Mentor Graphics Corporation
# (C) 2007-2013 Cadence Design Systems, Inc.
# (C) 2006-2013 Synopsys, Inc.
# (C) 2011-2013 Cypress Semiconductor Corp.
# ----------------------------------------------------------------
# 
#   ***********       IMPORTANT RELEASE NOTES         ************
# 
#   You are using a version of the UVM library that has been compiled
#   with `UVM_NO_DEPRECATED undefined.
#   See http://www.eda.org/svdb/view.php?id=3313 for more details.
# 
#   You are using a version of the UVM library that has been compiled
#   with `UVM_OBJECT_MUST_HAVE_CONSTRUCTOR undefined.
#   See http://www.eda.org/svdb/view.php?id=3770 for more details.
# 
#       (Specify +UVM_NO_RELNOTES to turn off this notice)
# 
# UVM_INFO verilog_src/questa_uvm_pkg-1.2/src/questa_uvm_pkg.sv(277) @ 0: reporter [Questa UVM] QUESTA_UVM-1.2.3
# UVM_INFO verilog_src/questa_uvm_pkg-1.2/src/questa_uvm_pkg.sv(278) @ 0: reporter [Questa UVM]  questa_uvm::init(+struct)
# UVM_INFO @ 0: reporter [RNTST] Running test fixed_burst_test...
# UVM_INFO @ 0: reporter [UVMTOP] UVM testbench topology:
# ------------------------------------------------------------------
# Name                       Type                        Size  Value
# ------------------------------------------------------------------
# uvm_test_top               fixed_burst_test            -     @474 
#   envh                     env                         -     @498 
#     m_agenth               master_agent                -     @506 
#       drvh                 master_driver               -     @660 
#         rsp_port           uvm_analysis_port           -     @675 
#         seq_item_port      uvm_seq_item_pull_port      -     @667 
#       monh                 master_monitor              -     @637 
#         analysis_port_rd   uvm_analysis_port           -     @652 
#         analysis_port_wr   uvm_analysis_port           -     @644 
#       seqrh                master_sequencer            -     @683 
#         rsp_export         uvm_analysis_export         -     @690 
#         seq_item_export    uvm_seq_item_pull_imp       -     @784 
#         arbitration_queue  array                       0     -    
#         lock_queue         array                       0     -    
#         num_last_reqs      integral                    32    'd1  
#         num_last_rsps      integral                    32    'd1  
#     s_agenth               slave_agent                 -     @513 
#       drvh                 slave_driver                -     @824 
#         rsp_port           uvm_analysis_port           -     @839 
#         seq_item_port      uvm_seq_item_pull_port      -     @831 
#       monh                 slave_monitor               -     @801 
#         analysis_port_rd   uvm_analysis_port           -     @816 
#         analysis_port_wr   uvm_analysis_port           -     @808 
#       seqrh                slave_sequencer             -     @847 
#         rsp_export         uvm_analysis_export         -     @854 
#         seq_item_export    uvm_seq_item_pull_imp       -     @948 
#         arbitration_queue  array                       0     -    
#         lock_queue         array                       0     -    
#         num_last_reqs      integral                    32    'd1  
#         num_last_rsps      integral                    32    'd1  
#     sb                     score_board                 -     @520 
#       m_rd_fifo            uvm_tlm_analysis_fifo #(T)  -     @1058
#         analysis_export    uvm_analysis_imp            -     @1097
#         get_ap             uvm_analysis_port           -     @1089
#         get_peek_export    uvm_get_peek_imp            -     @1073
#         put_ap             uvm_analysis_port           -     @1081
#         put_export         uvm_put_imp                 -     @1065
#       m_wr_fifo            uvm_tlm_analysis_fifo #(T)  -     @964 
#         analysis_export    uvm_analysis_imp            -     @1003
#         get_ap             uvm_analysis_port           -     @995 
#         get_peek_export    uvm_get_peek_imp            -     @979 
#         put_ap             uvm_analysis_port           -     @987 
#         put_export         uvm_put_imp                 -     @971 
#       s_rd_fifo            uvm_tlm_analysis_fifo #(T)  -     @1105
#         analysis_export    uvm_analysis_imp            -     @1144
#         get_ap             uvm_analysis_port           -     @1136
#         get_peek_export    uvm_get_peek_imp            -     @1120
#         put_ap             uvm_analysis_port           -     @1128
#         put_export         uvm_put_imp                 -     @1112
#       s_wr_fifo            uvm_tlm_analysis_fifo #(T)  -     @1011
#         analysis_export    uvm_analysis_imp            -     @1050
#         get_ap             uvm_analysis_port           -     @1042
#         get_peek_export    uvm_get_peek_imp            -     @1026
#         put_ap             uvm_analysis_port           -     @1034
#         put_export         uvm_put_imp                 -     @1018
#     seqrh                  virtual_sequencer           -     @527 
#       m_seqrh              master_sequencer            -     @1153
#         rsp_export         uvm_analysis_export         -     @1160
#         seq_item_export    uvm_seq_item_pull_imp       -     @1254
#         arbitration_queue  array                       0     -    
#         lock_queue         array                       0     -    
#         num_last_reqs      integral                    32    'd1  
#         num_last_rsps      integral                    32    'd1  
#       rsp_export           uvm_analysis_export         -     @534 
#       s_seqrh              slave_sequencer             -     @1262
#         rsp_export         uvm_analysis_export         -     @1269
#         seq_item_export    uvm_seq_item_pull_imp       -     @1363
#         arbitration_queue  array                       0     -    
#         lock_queue         array                       0     -    
#         num_last_reqs      integral                    32    'd1  
#         num_last_rsps      integral                    32    'd1  
#       seq_item_export      uvm_seq_item_pull_imp       -     @628 
#       arbitration_queue    array                       0     -    
#       lock_queue           array                       0     -    
#       num_last_reqs        integral                    32    'd1  
#       num_last_rsps        integral                    32    'd1  
# ------------------------------------------------------------------
# 
# UVM_INFO ../master_uvc/master_sequence.sv(133) @ 0: uvm_test_top.envh.m_agenth.seqrh@@seq [fixed_burst_seq] FIXED WR: AWID=0 AWADDR=0x0000752a AWLEN=9
# UVM_INFO ../master_uvc/master_sequence.sv(150) @ 0: uvm_test_top.envh.m_agenth.seqrh@@seq [fixed_burst_seq] FIXED RD: ARID=0 ARADDR=0x0000ae4e ARLEN=4
# UVM_INFO ../master_uvc/master_sequence.sv(133) @ 0: uvm_test_top.envh.m_agenth.seqrh@@seq [fixed_burst_seq] FIXED WR: AWID=1 AWADDR=0x0000b1c2 AWLEN=2
# UVM_INFO ../master_uvc/master_sequence.sv(150) @ 0: uvm_test_top.envh.m_agenth.seqrh@@seq [fixed_burst_seq] FIXED RD: ARID=1 ARADDR=0x0000934c ARLEN=12
# UVM_INFO ../master_uvc/master_sequence.sv(133) @ 0: uvm_test_top.envh.m_agenth.seqrh@@seq [fixed_burst_seq] FIXED WR: AWID=2 AWADDR=0x00005177 AWLEN=6
# UVM_INFO ../master_uvc/master_sequence.sv(150) @ 0: uvm_test_top.envh.m_agenth.seqrh@@seq [fixed_burst_seq] FIXED RD: ARID=2 ARADDR=0x0000cc32 ARLEN=13
# UVM_INFO ../master_uvc/master_sequence.sv(133) @ 0: uvm_test_top.envh.m_agenth.seqrh@@seq [fixed_burst_seq] FIXED WR: AWID=3 AWADDR=0x00009c39 AWLEN=6
# UVM_INFO ../master_uvc/master_sequence.sv(150) @ 0: uvm_test_top.envh.m_agenth.seqrh@@seq [fixed_burst_seq] FIXED RD: ARID=3 ARADDR=0x000058a1 ARLEN=14
# UVM_INFO ../master_uvc/master_sequence.sv(133) @ 0: uvm_test_top.envh.m_agenth.seqrh@@seq [fixed_burst_seq] FIXED WR: AWID=4 AWADDR=0x0000673a AWLEN=9
# UVM_INFO ../master_uvc/master_sequence.sv(150) @ 0: uvm_test_top.envh.m_agenth.seqrh@@seq [fixed_burst_seq] FIXED RD: ARID=4 ARADDR=0x000066ed ARLEN=1
# UVM_INFO ../master_uvc/master_sequence.sv(133) @ 0: uvm_test_top.envh.m_agenth.seqrh@@seq [fixed_burst_seq] FIXED WR: AWID=5 AWADDR=0x00005005 AWLEN=4
# UVM_INFO ../master_uvc/master_sequence.sv(150) @ 0: uvm_test_top.envh.m_agenth.seqrh@@seq [fixed_burst_seq] FIXED RD: ARID=5 ARADDR=0x00004a07 ARLEN=13
# UVM_INFO ../master_uvc/master_sequence.sv(133) @ 0: uvm_test_top.envh.m_agenth.seqrh@@seq [fixed_burst_seq] FIXED WR: AWID=6 AWADDR=0x00006386 AWLEN=2
# UVM_INFO ../master_uvc/master_sequence.sv(150) @ 0: uvm_test_top.envh.m_agenth.seqrh@@seq [fixed_burst_seq] FIXED RD: ARID=6 ARADDR=0x0000756c ARLEN=8
# UVM_INFO ../master_uvc/master_sequence.sv(133) @ 0: uvm_test_top.envh.m_agenth.seqrh@@seq [fixed_burst_seq] FIXED WR: AWID=7 AWADDR=0x00004285 AWLEN=3
# UVM_INFO ../master_uvc/master_sequence.sv(150) @ 0: uvm_test_top.envh.m_agenth.seqrh@@seq [fixed_burst_seq] FIXED RD: ARID=7 ARADDR=0x0000cc47 ARLEN=14
# UVM_INFO ../master_uvc/master_sequence.sv(133) @ 0: uvm_test_top.envh.m_agenth.seqrh@@seq [fixed_burst_seq] FIXED WR: AWID=8 AWADDR=0x000020de AWLEN=11
# UVM_INFO ../master_uvc/master_sequence.sv(150) @ 0: uvm_test_top.envh.m_agenth.seqrh@@seq [fixed_burst_seq] FIXED RD: ARID=8 ARADDR=0x0000c5e1 ARLEN=1
# UVM_INFO ../master_uvc/master_sequence.sv(133) @ 0: uvm_test_top.envh.m_agenth.seqrh@@seq [fixed_burst_seq] FIXED WR: AWID=9 AWADDR=0x0000e41f AWLEN=1
# UVM_INFO ../master_uvc/master_sequence.sv(150) @ 0: uvm_test_top.envh.m_agenth.seqrh@@seq [fixed_burst_seq] FIXED RD: ARID=9 ARADDR=0x0000d7d4 ARLEN=5
# UVM_INFO ../test/virtual_sequence.sv(90) @ 0: uvm_test_top.envh.seqrh@@seq [fixed_burst_v_seq] fixed_burst_v_seq completed
# UVM_INFO ../master_uvc/master_driver.sv(285) @ 185: uvm_test_top.envh.m_agenth.drvh [master_driver] RD COMPLETE: ARID=0 freed
# UVM_INFO ../master_uvc/master_monitor.sv(230) @ 185: uvm_test_top.envh.m_agenth.monh [master_monitor] MON RD_DATA: ARID=0 beats=5
# UVM_INFO ../slave_uvc/slave_monitor.sv(199) @ 185: uvm_test_top.envh.s_agenth.monh [slave_monitor] SLV MON RD_DATA: ARID=0 beats=5
# UVM_INFO ../tb/score_board.sv(138) @ 185: uvm_test_top.envh.sb [score_board] READ  compare: ARID=0 ARADDR=0x0000ae4e ARBURST=0 ARLEN=4
# UVM_INFO ../tb/score_board.sv(149) @ 185: uvm_test_top.envh.sb [score_board] READ  MATCH: ARID=0 ARADDR=0x0000ae4e ARBURST=0
# UVM_INFO ../master_uvc/master_driver.sv(228) @ 575: uvm_test_top.envh.m_agenth.drvh [master_driver] WR COMPLETE: AWID=0 freed
# UVM_INFO ../master_uvc/master_monitor.sv(151) @ 575: uvm_test_top.envh.m_agenth.monh [master_monitor] MON WR_RESP: AWID=0 BRESP=0
# UVM_INFO ../slave_uvc/slave_monitor.sv(131) @ 575: uvm_test_top.envh.s_agenth.monh [slave_monitor] SLV MON WR_RESP: AWID=0 BRESP=0
# UVM_INFO ../tb/score_board.sv(107) @ 575: uvm_test_top.envh.sb [score_board] WRITE compare: AWID=0 AWADDR=0x0000752a AWBURST=0 AWLEN=9
# UVM_INFO ../tb/score_board.sv(118) @ 575: uvm_test_top.envh.sb [score_board] WRITE MATCH: AWID=0 AWADDR=0x0000752a AWBURST=0
# UVM_INFO ../master_uvc/master_driver.sv(285) @ 645: uvm_test_top.envh.m_agenth.drvh [master_driver] RD COMPLETE: ARID=1 freed
# UVM_INFO ../master_uvc/master_monitor.sv(230) @ 645: uvm_test_top.envh.m_agenth.monh [master_monitor] MON RD_DATA: ARID=1 beats=13
# UVM_INFO ../slave_uvc/slave_monitor.sv(199) @ 645: uvm_test_top.envh.s_agenth.monh [slave_monitor] SLV MON RD_DATA: ARID=1 beats=13
# UVM_INFO ../tb/score_board.sv(138) @ 645: uvm_test_top.envh.sb [score_board] READ  compare: ARID=1 ARADDR=0x0000934c ARBURST=0 ARLEN=12
# UVM_INFO ../tb/score_board.sv(149) @ 645: uvm_test_top.envh.sb [score_board] READ  MATCH: ARID=1 ARADDR=0x0000934c ARBURST=0
# UVM_INFO ../master_uvc/master_driver.sv(228) @ 795: uvm_test_top.envh.m_agenth.drvh [master_driver] WR COMPLETE: AWID=1 freed
# UVM_INFO ../master_uvc/master_monitor.sv(151) @ 795: uvm_test_top.envh.m_agenth.monh [master_monitor] MON WR_RESP: AWID=1 BRESP=0
# UVM_INFO ../slave_uvc/slave_monitor.sv(131) @ 795: uvm_test_top.envh.s_agenth.monh [slave_monitor] SLV MON WR_RESP: AWID=1 BRESP=0
# UVM_INFO ../tb/score_board.sv(107) @ 795: uvm_test_top.envh.sb [score_board] WRITE compare: AWID=1 AWADDR=0x0000b1c2 AWBURST=0 AWLEN=2
# UVM_INFO ../tb/score_board.sv(118) @ 795: uvm_test_top.envh.sb [score_board] WRITE MATCH: AWID=1 AWADDR=0x0000b1c2 AWBURST=0
# UVM_INFO ../master_uvc/master_driver.sv(285) @ 1065: uvm_test_top.envh.m_agenth.drvh [master_driver] RD COMPLETE: ARID=2 freed
# UVM_INFO ../master_uvc/master_monitor.sv(230) @ 1065: uvm_test_top.envh.m_agenth.monh [master_monitor] MON RD_DATA: ARID=2 beats=14
# UVM_INFO ../slave_uvc/slave_monitor.sv(199) @ 1065: uvm_test_top.envh.s_agenth.monh [slave_monitor] SLV MON RD_DATA: ARID=2 beats=14
# UVM_INFO ../tb/score_board.sv(138) @ 1065: uvm_test_top.envh.sb [score_board] READ  compare: ARID=2 ARADDR=0x0000cc32 ARBURST=0 ARLEN=13
# UVM_INFO ../tb/score_board.sv(149) @ 1065: uvm_test_top.envh.sb [score_board] READ  MATCH: ARID=2 ARADDR=0x0000cc32 ARBURST=0
# UVM_INFO ../master_uvc/master_driver.sv(228) @ 1255: uvm_test_top.envh.m_agenth.drvh [master_driver] WR COMPLETE: AWID=2 freed
# UVM_INFO ../master_uvc/master_monitor.sv(151) @ 1255: uvm_test_top.envh.m_agenth.monh [master_monitor] MON WR_RESP: AWID=2 BRESP=0
# UVM_INFO ../slave_uvc/slave_monitor.sv(131) @ 1255: uvm_test_top.envh.s_agenth.monh [slave_monitor] SLV MON WR_RESP: AWID=2 BRESP=0
# UVM_INFO ../tb/score_board.sv(107) @ 1255: uvm_test_top.envh.sb [score_board] WRITE compare: AWID=2 AWADDR=0x00005177 AWBURST=0 AWLEN=6
# UVM_INFO ../tb/score_board.sv(118) @ 1255: uvm_test_top.envh.sb [score_board] WRITE MATCH: AWID=2 AWADDR=0x00005177 AWBURST=0
# UVM_INFO ../master_uvc/master_driver.sv(285) @ 1605: uvm_test_top.envh.m_agenth.drvh [master_driver] RD COMPLETE: ARID=3 freed
# UVM_INFO ../master_uvc/master_monitor.sv(230) @ 1605: uvm_test_top.envh.m_agenth.monh [master_monitor] MON RD_DATA: ARID=3 beats=15
# UVM_INFO ../slave_uvc/slave_monitor.sv(199) @ 1605: uvm_test_top.envh.s_agenth.monh [slave_monitor] SLV MON RD_DATA: ARID=3 beats=15
# UVM_INFO ../tb/score_board.sv(138) @ 1605: uvm_test_top.envh.sb [score_board] READ  compare: ARID=3 ARADDR=0x000058a1 ARBURST=0 ARLEN=14
# UVM_INFO ../tb/score_board.sv(149) @ 1605: uvm_test_top.envh.sb [score_board] READ  MATCH: ARID=3 ARADDR=0x000058a1 ARBURST=0
# UVM_INFO ../master_uvc/master_driver.sv(228) @ 1655: uvm_test_top.envh.m_agenth.drvh [master_driver] WR COMPLETE: AWID=3 freed
# UVM_INFO ../master_uvc/master_monitor.sv(151) @ 1655: uvm_test_top.envh.m_agenth.monh [master_monitor] MON WR_RESP: AWID=3 BRESP=0
# UVM_INFO ../slave_uvc/slave_monitor.sv(131) @ 1655: uvm_test_top.envh.s_agenth.monh [slave_monitor] SLV MON WR_RESP: AWID=3 BRESP=0
# UVM_INFO ../tb/score_board.sv(107) @ 1655: uvm_test_top.envh.sb [score_board] WRITE compare: AWID=3 AWADDR=0x00009c39 AWBURST=0 AWLEN=6
# UVM_INFO ../tb/score_board.sv(118) @ 1655: uvm_test_top.envh.sb [score_board] WRITE MATCH: AWID=3 AWADDR=0x00009c39 AWBURST=0
# UVM_INFO ../master_uvc/master_driver.sv(285) @ 1695: uvm_test_top.envh.m_agenth.drvh [master_driver] RD COMPLETE: ARID=4 freed
# UVM_INFO ../master_uvc/master_monitor.sv(230) @ 1695: uvm_test_top.envh.m_agenth.monh [master_monitor] MON RD_DATA: ARID=4 beats=2
# UVM_INFO ../slave_uvc/slave_monitor.sv(199) @ 1695: uvm_test_top.envh.s_agenth.monh [slave_monitor] SLV MON RD_DATA: ARID=4 beats=2
# UVM_INFO ../tb/score_board.sv(138) @ 1695: uvm_test_top.envh.sb [score_board] READ  compare: ARID=4 ARADDR=0x000066ed ARBURST=0 ARLEN=1
# UVM_INFO ../tb/score_board.sv(149) @ 1695: uvm_test_top.envh.sb [score_board] READ  MATCH: ARID=4 ARADDR=0x000066ed ARBURST=0
# UVM_INFO ../master_uvc/master_driver.sv(285) @ 2195: uvm_test_top.envh.m_agenth.drvh [master_driver] RD COMPLETE: ARID=5 freed
# UVM_INFO ../master_uvc/master_monitor.sv(230) @ 2195: uvm_test_top.envh.m_agenth.monh [master_monitor] MON RD_DATA: ARID=5 beats=14
# UVM_INFO ../slave_uvc/slave_monitor.sv(199) @ 2195: uvm_test_top.envh.s_agenth.monh [slave_monitor] SLV MON RD_DATA: ARID=5 beats=14
# UVM_INFO ../tb/score_board.sv(138) @ 2195: uvm_test_top.envh.sb [score_board] READ  compare: ARID=5 ARADDR=0x00004a07 ARBURST=0 ARLEN=13
# UVM_INFO ../tb/score_board.sv(149) @ 2195: uvm_test_top.envh.sb [score_board] READ  MATCH: ARID=5 ARADDR=0x00004a07 ARBURST=0
# UVM_INFO ../master_uvc/master_driver.sv(228) @ 2265: uvm_test_top.envh.m_agenth.drvh [master_driver] WR COMPLETE: AWID=4 freed
# UVM_INFO ../master_uvc/master_monitor.sv(151) @ 2265: uvm_test_top.envh.m_agenth.monh [master_monitor] MON WR_RESP: AWID=4 BRESP=0
# UVM_INFO ../slave_uvc/slave_monitor.sv(131) @ 2265: uvm_test_top.envh.s_agenth.monh [slave_monitor] SLV MON WR_RESP: AWID=4 BRESP=0
# UVM_INFO ../tb/score_board.sv(107) @ 2265: uvm_test_top.envh.sb [score_board] WRITE compare: AWID=4 AWADDR=0x0000673a AWBURST=0 AWLEN=9
# UVM_INFO ../tb/score_board.sv(118) @ 2265: uvm_test_top.envh.sb [score_board] WRITE MATCH: AWID=4 AWADDR=0x0000673a AWBURST=0
# UVM_INFO ../master_uvc/master_driver.sv(285) @ 2485: uvm_test_top.envh.m_agenth.drvh [master_driver] RD COMPLETE: ARID=6 freed
# UVM_INFO ../master_uvc/master_monitor.sv(230) @ 2485: uvm_test_top.envh.m_agenth.monh [master_monitor] MON RD_DATA: ARID=6 beats=9
# UVM_INFO ../slave_uvc/slave_monitor.sv(199) @ 2485: uvm_test_top.envh.s_agenth.monh [slave_monitor] SLV MON RD_DATA: ARID=6 beats=9
# UVM_INFO ../tb/score_board.sv(138) @ 2485: uvm_test_top.envh.sb [score_board] READ  compare: ARID=6 ARADDR=0x0000756c ARBURST=0 ARLEN=8
# UVM_INFO ../tb/score_board.sv(149) @ 2485: uvm_test_top.envh.sb [score_board] READ  MATCH: ARID=6 ARADDR=0x0000756c ARBURST=0
# UVM_INFO ../master_uvc/master_driver.sv(228) @ 2545: uvm_test_top.envh.m_agenth.drvh [master_driver] WR COMPLETE: AWID=5 freed
# UVM_INFO ../master_uvc/master_monitor.sv(151) @ 2545: uvm_test_top.envh.m_agenth.monh [master_monitor] MON WR_RESP: AWID=5 BRESP=0
# UVM_INFO ../slave_uvc/slave_monitor.sv(131) @ 2545: uvm_test_top.envh.s_agenth.monh [slave_monitor] SLV MON WR_RESP: AWID=5 BRESP=0
# UVM_INFO ../tb/score_board.sv(107) @ 2545: uvm_test_top.envh.sb [score_board] WRITE compare: AWID=5 AWADDR=0x00005005 AWBURST=0 AWLEN=4
# UVM_INFO ../tb/score_board.sv(118) @ 2545: uvm_test_top.envh.sb [score_board] WRITE MATCH: AWID=5 AWADDR=0x00005005 AWBURST=0
# UVM_INFO ../master_uvc/master_driver.sv(228) @ 2795: uvm_test_top.envh.m_agenth.drvh [master_driver] WR COMPLETE: AWID=6 freed
# UVM_INFO ../master_uvc/master_monitor.sv(151) @ 2795: uvm_test_top.envh.m_agenth.monh [master_monitor] MON WR_RESP: AWID=6 BRESP=0
# UVM_INFO ../slave_uvc/slave_monitor.sv(131) @ 2795: uvm_test_top.envh.s_agenth.monh [slave_monitor] SLV MON WR_RESP: AWID=6 BRESP=0
# UVM_INFO ../tb/score_board.sv(107) @ 2795: uvm_test_top.envh.sb [score_board] WRITE compare: AWID=6 AWADDR=0x00006386 AWBURST=0 AWLEN=2
# UVM_INFO ../tb/score_board.sv(118) @ 2795: uvm_test_top.envh.sb [score_board] WRITE MATCH: AWID=6 AWADDR=0x00006386 AWBURST=0
# UVM_INFO ../master_uvc/master_driver.sv(285) @ 2985: uvm_test_top.envh.m_agenth.drvh [master_driver] RD COMPLETE: ARID=7 freed
# UVM_INFO ../master_uvc/master_monitor.sv(230) @ 2985: uvm_test_top.envh.m_agenth.monh [master_monitor] MON RD_DATA: ARID=7 beats=15
# UVM_INFO ../slave_uvc/slave_monitor.sv(199) @ 2985: uvm_test_top.envh.s_agenth.monh [slave_monitor] SLV MON RD_DATA: ARID=7 beats=15
# UVM_INFO ../tb/score_board.sv(138) @ 2985: uvm_test_top.envh.sb [score_board] READ  compare: ARID=7 ARADDR=0x0000cc47 ARBURST=0 ARLEN=14
# UVM_INFO ../tb/score_board.sv(149) @ 2985: uvm_test_top.envh.sb [score_board] READ  MATCH: ARID=7 ARADDR=0x0000cc47 ARBURST=0
# UVM_INFO ../master_uvc/master_driver.sv(285) @ 3095: uvm_test_top.envh.m_agenth.drvh [master_driver] RD COMPLETE: ARID=8 freed
# UVM_INFO ../master_uvc/master_monitor.sv(230) @ 3095: uvm_test_top.envh.m_agenth.monh [master_monitor] MON RD_DATA: ARID=8 beats=2
# UVM_INFO ../slave_uvc/slave_monitor.sv(199) @ 3095: uvm_test_top.envh.s_agenth.monh [slave_monitor] SLV MON RD_DATA: ARID=8 beats=2
# UVM_INFO ../tb/score_board.sv(138) @ 3095: uvm_test_top.envh.sb [score_board] READ  compare: ARID=8 ARADDR=0x0000c5e1 ARBURST=0 ARLEN=1
# UVM_INFO ../tb/score_board.sv(149) @ 3095: uvm_test_top.envh.sb [score_board] READ  MATCH: ARID=8 ARADDR=0x0000c5e1 ARBURST=0
# UVM_INFO ../master_uvc/master_driver.sv(228) @ 3125: uvm_test_top.envh.m_agenth.drvh [master_driver] WR COMPLETE: AWID=7 freed
# UVM_INFO ../master_uvc/master_monitor.sv(151) @ 3125: uvm_test_top.envh.m_agenth.monh [master_monitor] MON WR_RESP: AWID=7 BRESP=0
# UVM_INFO ../slave_uvc/slave_monitor.sv(131) @ 3125: uvm_test_top.envh.s_agenth.monh [slave_monitor] SLV MON WR_RESP: AWID=7 BRESP=0
# UVM_INFO ../tb/score_board.sv(107) @ 3125: uvm_test_top.envh.sb [score_board] WRITE compare: AWID=7 AWADDR=0x00004285 AWBURST=0 AWLEN=3
# UVM_INFO ../tb/score_board.sv(118) @ 3125: uvm_test_top.envh.sb [score_board] WRITE MATCH: AWID=7 AWADDR=0x00004285 AWBURST=0
# UVM_INFO ../master_uvc/master_driver.sv(285) @ 3345: uvm_test_top.envh.m_agenth.drvh [master_driver] RD COMPLETE: ARID=9 freed
# UVM_INFO ../master_uvc/master_monitor.sv(230) @ 3345: uvm_test_top.envh.m_agenth.monh [master_monitor] MON RD_DATA: ARID=9 beats=6
# UVM_INFO ../slave_uvc/slave_monitor.sv(199) @ 3345: uvm_test_top.envh.s_agenth.monh [slave_monitor] SLV MON RD_DATA: ARID=9 beats=6
# UVM_INFO ../tb/score_board.sv(138) @ 3345: uvm_test_top.envh.sb [score_board] READ  compare: ARID=9 ARADDR=0x0000d7d4 ARBURST=0 ARLEN=5
# UVM_INFO ../tb/score_board.sv(149) @ 3345: uvm_test_top.envh.sb [score_board] READ  MATCH: ARID=9 ARADDR=0x0000d7d4 ARBURST=0
# UVM_INFO ../master_uvc/master_driver.sv(228) @ 3725: uvm_test_top.envh.m_agenth.drvh [master_driver] WR COMPLETE: AWID=8 freed
# UVM_INFO ../master_uvc/master_monitor.sv(151) @ 3725: uvm_test_top.envh.m_agenth.monh [master_monitor] MON WR_RESP: AWID=8 BRESP=0
# UVM_INFO ../slave_uvc/slave_monitor.sv(131) @ 3725: uvm_test_top.envh.s_agenth.monh [slave_monitor] SLV MON WR_RESP: AWID=8 BRESP=0
# UVM_INFO ../tb/score_board.sv(107) @ 3725: uvm_test_top.envh.sb [score_board] WRITE compare: AWID=8 AWADDR=0x000020de AWBURST=0 AWLEN=11
# UVM_INFO ../tb/score_board.sv(118) @ 3725: uvm_test_top.envh.sb [score_board] WRITE MATCH: AWID=8 AWADDR=0x000020de AWBURST=0
# UVM_INFO ../master_uvc/master_driver.sv(228) @ 3925: uvm_test_top.envh.m_agenth.drvh [master_driver] WR COMPLETE: AWID=9 freed
# UVM_INFO ../master_uvc/master_monitor.sv(151) @ 3925: uvm_test_top.envh.m_agenth.monh [master_monitor] MON WR_RESP: AWID=9 BRESP=0
# UVM_INFO ../slave_uvc/slave_monitor.sv(131) @ 3925: uvm_test_top.envh.s_agenth.monh [slave_monitor] SLV MON WR_RESP: AWID=9 BRESP=0
# UVM_INFO ../tb/score_board.sv(107) @ 3925: uvm_test_top.envh.sb [score_board] WRITE compare: AWID=9 AWADDR=0x0000e41f AWBURST=0 AWLEN=1
# UVM_INFO ../tb/score_board.sv(118) @ 3925: uvm_test_top.envh.sb [score_board] WRITE MATCH: AWID=9 AWADDR=0x0000e41f AWBURST=0
# UVM_INFO verilog_src/uvm-1.1d/src/base/uvm_objection.svh(1267) @ 6995: reporter [TEST_DONE] 'run' phase is ready to proceed to the 'extract' phase
# UVM_INFO ../tb/score_board.sv(197) @ 6995: uvm_test_top.envh.sb [score_board] 
# 
# ============================================
#   AXI VIP SCOREBOARD REPORT
# ============================================
#   Write seen      : 10
#   Write matched   : 10
#   Write mismatched: 0
# --------------------------------------------
#   Read  seen      : 10
#   Read  matched   : 10
#   Read  mismatched: 0
# ============================================
# 
# 
# UVM_INFO ../tb/score_board.sv(215) @ 6995: uvm_test_top.envh.sb [score_board] TEST PASSED – all transactions matched
# 
# --- UVM Report Summary ---
# 
# ** Report counts by severity
# UVM_INFO :  128
# UVM_WARNING :    0
# UVM_ERROR :    0
# UVM_FATAL :    0
# ** Report counts by id
# [Questa UVM]     2
# [RNTST]     1
# [TEST_DONE]     1
# [UVMTOP]     1
# [fixed_burst_seq]    20
# [fixed_burst_v_seq]     1
# [master_driver]    20
# [master_monitor]    20
# [score_board]    42
# [slave_monitor]    20
# ** Note: $finish    : /pkgs/mentor/questa/2024.2/questasim/linux_x86_64/../verilog_src/uvm-1.1d/src/base/uvm_root.svh(430)
#    Time: 6995 ns  Iteration: 55  Instance: /top
# Saving coverage database on exit...
# End time: 23:54:55 on Mar 30,2026, Elapsed time: 0:00:07
# Errors: 0, Warnings: 2
